<Qucs Dataset 0.0.15>
<indep x 12>
  +0.00000000000e+00
  +1.00000000000e+00
  +5.00000000000e+00
  +1.00000000000e+01
  +1.50000000000e+01
  +2.00000000000e+01
  +2.50000000000e+01
  +3.00000000000e+01
  +3.50000000000e+01
  +4.00000000000e+01
  +4.50000000000e+01
  +5.00000000000e+01
</indep>
<dep V1.I x>
  -2.22500000000e+00
  -1.97777777778e+00
  -1.36923076923e+00
  -9.88888888889e-01
  -7.73913043478e-01
  -6.35714285714e-01
  -5.39393939394e-01
  -4.68421052632e-01
  -4.13953488372e-01
  -3.70833333333e-01
  -3.35849056604e-01
  -3.06896551724e-01
</dep>
<dep izeja.V x>
  -0.00000000000e+00
  +1.97777777778e+00
  +6.84615384615e+00
  +9.88888888889e+00
  +1.16086956522e+01
  +1.27142857143e+01
  +1.34848484848e+01
  +1.40526315789e+01
  +1.44883720930e+01
  +1.48333333333e+01
  +1.51132075472e+01
  +1.53448275862e+01
</dep>
<dep _net0.V x>
  +1.78000000000e+01
  +1.78000000000e+01
  +1.78000000000e+01
  +1.78000000000e+01
  +1.78000000000e+01
  +1.78000000000e+01
  +1.78000000000e+01
  +1.78000000000e+01
  +1.78000000000e+01
  +1.78000000000e+01
  +1.78000000000e+01
  +1.78000000000e+01
</dep>
